T39F8 2420:886 SEGGER J-Link V6.20 Log File (0000ms, 0971ms total)
T39F8 2420:886 DLL Compiled: Sep  8 2017 18:04:35 (0000ms, 0971ms total)
T39F8 2420:886 Logging started @ 2018-10-21 14:02 (0000ms, 0971ms total)
T39F8 2420:886 JLINK_SetWarnOutHandler(...) (0000ms, 0971ms total)
T39F8 2420:886 JLINK_OpenEx(...)
Firmware: J-Link V9 compiled Apr 20 2018 16:47:26
Hardware: V9.20
Feature(s): RDI, GDB, FlashDL, FlashBP, JFlash, RDDI
TELNET listener socket opened on port 19021WEBSRV 
Webserver running on local port 19080  returns O.K. (0119ms, 1090ms total)
T39F8 2421:005 JLINK_GetEmuCaps()  returns 0xB9FF7BBF (0000ms, 1090ms total)
T39F8 2421:005 JLINK_TIF_GetAvailable(...) (0000ms, 1090ms total)
T39F8 2421:005 JLINK_SetErrorOutHandler(...) (0000ms, 1090ms total)
T39F8 2421:005 JLINK_ExecCommand("ProjectFile = "F:\stm32Ñ§Ï°\stm32´úÂë\STM32 407 Ä£°å\Project\JLinkSettings.ini"", ...).   returns 0x00 (0003ms, 1093ms total)
T39F8 2421:008 JLINK_ExecCommand("Device = STM32F407ZGTx", ...). Device "STM32F407ZG" selected.  returns 0x00 (0001ms, 1094ms total)
T39F8 2421:009 JLINK_ExecCommand("DisableConnectionTimeout", ...).   returns 0x01 (0000ms, 1094ms total)
T39F8 2421:009 JLINK_GetHardwareVersion()  returns 0x16760 (0000ms, 1094ms total)
T39F8 2421:009 JLINK_GetDLLVersion()  returns 62000 (0000ms, 1094ms total)
T39F8 2421:009 JLINK_GetFirmwareString(...) (0000ms, 1094ms total)
T39F8 2421:009 JLINK_GetDLLVersion()  returns 62000 (0000ms, 1094ms total)
T39F8 2421:009 JLINK_GetCompileDateTime() (0000ms, 1094ms total)
T39F8 2421:009 JLINK_GetFirmwareString(...) (0000ms, 1094ms total)
T39F8 2421:009 JLINK_GetHardwareVersion()  returns 0x16760 (0000ms, 1094ms total)
T39F8 2421:009 JLINK_TIF_Select(JLINKARM_TIF_JTAG)  returns 0x00 (0000ms, 1094ms total)
T39F8 2421:009 JLINK_SetSpeed(5000) (0000ms, 1094ms total)
T39F8 2421:010 JLINK_GetIdData(...) >0x2F8 JTAG>TotalIRLen = 9, IRPrint = 0x0011 >0x30 JTAG> >0x50 JTAG>JTAG chain detection found 2 devices: #0 Id: 0x4BA00477, IRLen: 04, CoreSight JTAG-DP #1 Id: 0x06413041, IRLen: 05, STM32 Boundary Scan >0x40 JTAG> >0x40 JTAG> >0x40 JTAG> >0x30 JTAG> >0x40 JTAG> >0x40 JTAG> >0x40 JTAG> >0x40 JTAG> >0x40 JTAG> >0x40 JTAG> >0x40 JTAG> >0x40 JTAG> >0x40 JTAG> >0x40 JTAG> >0x40 JTAG> >0x40 JTAG> >0x40 JTAG> >0x40 JTAG> >0x40 JTAG> >0x40 JTAG> >0x40 JTAG> >0x40 JTAG>
 >0x40 JTAG> >0x40 JTAG> >0x2F8 JTAG>TotalIRLen = 9, IRPrint = 0x0011 >0x30 JTAG> >0x50 JTAG>JTAG chain detection found 2 devices: #0 Id: 0x4BA00477, IRLen: 04, CoreSight JTAG-DP #1 Id: 0x06413041, IRLen: 05, STM32 Boundary ScanScanning AP map to find all available APs >0x80 JTAG> >0x50 JTAG> >0x40 JTAG> >0x40 JTAG> >0x50 JTAG> >0x40 JTAG>AP[1]: Stopped AP scan as end of AP map has been reachedAP[0]: AHB-AP (IDR: 0x24770011)Iterating through AP map to find AHB-AP to use >0x80 JTAG> >0x50 JTAG>
 >0x50 JTAG> >0x80 JTAG> >0x40 JTAG> >0x30 JTAG> >0x40 JTAG> >0x40 JTAG>AP[0]: Core foundAP[0]: AHB-AP ROM base: 0xE00FF000 >0x40 JTAG> >0x40 JTAG> >0x30 JTAG> >0x40 JTAG> >0x40 JTAG>CPUID register: 0x410FC241. Implementer code: 0x41 (ARM)Found Cortex-M4 r0p1, Little endian. -- CPU_ReadMem(4 bytes @ 0xE000EDF0) -- CPU_WriteMem(4 bytes @ 0xE000EDF0) -- CPU_ReadMem(4 bytes @ 0xE0002000)FPUnit: 6 code (BP) slots and 2 literal slots -- CPU_ReadMem(4 bytes @ 0xE000EDFC) -- CPU_WriteMem(4 bytes @ 0xE000EDFC)
 -- CPU_ReadMem(4 bytes @ 0xE0001000) -- CPU_WriteMem(4 bytes @ 0xE0001000) -- CPU_ReadMem(4 bytes @ 0xE000ED88) -- CPU_WriteMem(4 bytes @ 0xE000ED88) -- CPU_ReadMem(4 bytes @ 0xE000ED88) -- CPU_WriteMem(4 bytes @ 0xE000ED88)CoreSight components:ROMTbl[0] @ E00FF000 -- CPU_ReadMem(16 bytes @ 0xE00FF000) -- CPU_ReadMem(16 bytes @ 0xE000EFF0) -- CPU_ReadMem(16 bytes @ 0xE000EFE0)ROMTbl[0][0]: E000E000, CID: B105E00D, PID: 000BB00C SCS -- CPU_ReadMem(16 bytes @ 0xE0001FF0)
 -- CPU_ReadMem(16 bytes @ 0xE0001FE0)ROMTbl[0][1]: E0001000, CID: B105E00D, PID: 003BB002 DWT -- CPU_ReadMem(16 bytes @ 0xE0002FF0) -- CPU_ReadMem(16 bytes @ 0xE0002FE0)ROMTbl[0][2]: E0002000, CID: B105E00D, PID: 002BB003 FPB -- CPU_ReadMem(16 bytes @ 0xE0000FF0) -- CPU_ReadMem(16 bytes @ 0xE0000FE0)ROMTbl[0][3]: E0000000, CID: B105E00D, PID: 003BB001 ITM -- CPU_ReadMem(16 bytes @ 0xE00FF010) -- CPU_ReadMem(16 bytes @ 0xE0040FF0) -- CPU_ReadMem(16 bytes @ 0xE0040FE0)
ROMTbl[0][4]: E0040000, CID: B105900D, PID: 000BB9A1 TPIU -- CPU_ReadMem(16 bytes @ 0xE0041FF0) -- CPU_ReadMem(16 bytes @ 0xE0041FE0)ROMTbl[0][5]: E0041000, CID: B105900D, PID: 000BB925 ETM ScanLen=9 NumDevices=2 aId[0]=0x4BA00477 aIrRead[0]=0 aScanLen[0]=0 aScanRead[0]=0 (0019ms, 1113ms total)
T39F8 2421:029 JLINK_JTAG_GetDeviceID(DeviceIndex = 0)  returns 0x4BA00477 (0000ms, 1113ms total)
T39F8 2421:029 JLINK_JTAG_GetDeviceInfo(DeviceIndex = 0)  returns 0x00 (0000ms, 1113ms total)
T39F8 2421:029 JLINK_JTAG_GetDeviceID(DeviceIndex = 1)  returns 0x6413041 (0000ms, 1113ms total)
T39F8 2421:029 JLINK_JTAG_GetDeviceInfo(DeviceIndex = 1)  returns 0x00 (0000ms, 1113ms total)
T39F8 2421:029 JLINK_GetDLLVersion()  returns 62000 (0000ms, 1113ms total)
T39F8 2421:029 JLINK_CORE_GetFound()  returns 0xE0000FF (0000ms, 1113ms total)
T39F8 2421:029 JLINK_GetDebugInfo(0x100 = JLINKARM_ROM_TABLE_ADDR_INDEX) -- Value=0xE00FF000  returns 0x00 (0000ms, 1113ms total)
T39F8 2421:029 JLINK_GetDebugInfo(0x100 = JLINKARM_ROM_TABLE_ADDR_INDEX) -- Value=0xE00FF000  returns 0x00 (0000ms, 1113ms total)
T39F8 2421:029 JLINK_GetDebugInfo(0x101 = JLINKARM_DEBUG_INFO_ETM_ADDR_INDEX) -- Value=0xE0041000  returns 0x00 (0000ms, 1113ms total)
T39F8 2421:029 JLINK_ReadMemEx(0xE0041FD0, 0x0020 Bytes, ..., Flags = 0x02000004) -- CPU_ReadMem(32 bytes @ 0xE0041FD0) - Data: 04 00 00 00 00 00 00 00 00 00 00 00 00 00 00 00 ...  returns 0x20 (0000ms, 1113ms total)
T39F8 2421:029 JLINK_GetDebugInfo(0x102 = JLINKARM_DEBUG_INFO_MTB_ADDR_INDEX) -- Value=0x00000000  returns 0x00 (0000ms, 1113ms total)
T39F8 2421:029 JLINK_GetDebugInfo(0x103 = JLINKARM_DEBUG_INFO_TPIU_ADDR_INDEX) -- Value=0xE0040000  returns 0x00 (0000ms, 1113ms total)
T39F8 2421:029 JLINK_GetDebugInfo(0x104 = JLINKARM_DEBUG_INFO_ITM_ADDR_INDEX) -- Value=0xE0000000  returns 0x00 (0000ms, 1113ms total)
T39F8 2421:029 JLINK_GetDebugInfo(0x105 = JLINKARM_DEBUG_INFO_DWT_ADDR_INDEX) -- Value=0xE0001000  returns 0x00 (0000ms, 1113ms total)
T39F8 2421:029 JLINK_GetDebugInfo(0x106 = JLINKARM_DEBUG_INFO_FPB_ADDR_INDEX) -- Value=0xE0002000  returns 0x00 (0000ms, 1113ms total)
T39F8 2421:029 JLINK_GetDebugInfo(0x107 = JLINKARM_DEBUG_INFO_NVIC_ADDR_INDEX) -- Value=0xE000E000  returns 0x00 (0000ms, 1113ms total)
T39F8 2421:029 JLINK_GetDebugInfo(0x10C = JLINKARM_DEBUG_INFO_DBG_ADDR_INDEX) -- Value=0xE000EDF0  returns 0x00 (0000ms, 1113ms total)
T39F8 2421:029 JLINK_ReadMemU32(0xE000EF40, 0x0001 Items, ...) -- CPU_ReadMem(4 bytes @ 0xE000EF40) - Data: 21 00 11 10  returns 0x01 (0001ms, 1114ms total)
T39F8 2421:030 JLINK_ReadMemU32(0xE000EF44, 0x0001 Items, ...) -- CPU_ReadMem(4 bytes @ 0xE000EF44) - Data: 11 00 00 11  returns 0x01 (0000ms, 1114ms total)
T39F8 2421:030 JLINK_ReadMemU32(0xE000ED00, 0x0001 Items, ...) -- CPU_ReadMem(4 bytes @ 0xE000ED00) - Data: 41 C2 0F 41  returns 0x01 (0000ms, 1114ms total)
T39F8 2421:030 JLINK_GetDebugInfo(0x10F = JLINKARM_DEBUG_INFO_HAS_CORTEX_M_SECURITY_EXT_INDEX) -- Value=0x00000000  returns 0x00 (0000ms, 1114ms total)
T39F8 2421:030 JLINK_SetResetType(JLINKARM_CM3_RESET_TYPE_NORMAL)  returns JLINKARM_CM3_RESET_TYPE_NORMAL (0000ms, 1114ms total)
T39F8 2421:030 JLINK_Reset() -- CPU is running -- CPU_WriteMem(4 bytes @ 0xE000EDF0) -- CPU is running -- CPU_WriteMem(4 bytes @ 0xE000EDFC)Reset: Halt core after reset via DEMCR.VC_CORERESET.Reset: Reset device via AIRCR.SYSRESETREQ. -- CPU is running -- CPU_WriteMem(4 bytes @ 0xE000ED0C) -- CPU_ReadMem(4 bytes @ 0xE000EDF0) -- CPU_ReadMem(4 bytes @ 0xE000EDF0) -- CPU is running -- CPU_WriteMem(4 bytes @ 0xE000EDF0) -- CPU is running -- CPU_WriteMem(4 bytes @ 0xE000EDFC)
 -- CPU_ReadMem(4 bytes @ 0xE000EDF0) -- CPU_WriteMem(4 bytes @ 0xE000EDFC) -- CPU_WriteMem(4 bytes @ 0xE0001028) -- CPU_WriteMem(4 bytes @ 0xE0001038) -- CPU_WriteMem(4 bytes @ 0xE0001048) -- CPU_WriteMem(4 bytes @ 0xE0001058) -- CPU_WriteMem(4 bytes @ 0xE0002000) -- CPU_ReadMem(4 bytes @ 0xE000EDFC) -- CPU_ReadMem(4 bytes @ 0xE0001000) (0065ms, 1179ms total)
T39F8 2421:095 JLINK_ReadReg(R15 (PC))  returns 0x0800019C (0000ms, 1179ms total)
T39F8 2421:095 JLINK_ReadReg(XPSR)  returns 0x01000000 (0000ms, 1179ms total)
T39F8 2421:095 JLINK_Halt()  returns 0x00 (0000ms, 1179ms total)
T39F8 2421:095 JLINK_ReadMemU32(0xE000EDF0, 0x0001 Items, ...) -- CPU_ReadMem(4 bytes @ 0xE000EDF0) - Data: 03 00 03 00  returns 0x01 (0001ms, 1180ms total)
T39F8 2421:096 JLINK_WriteU32(0xE000EDF0, 0xA05F0003) -- CPU_WriteMem(4 bytes @ 0xE000EDF0)  returns 0x00 (0000ms, 1180ms total)
T39F8 2421:096 JLINK_WriteU32(0xE000EDFC, 0x01000000) -- CPU_WriteMem(4 bytes @ 0xE000EDFC)  returns 0x00 (0000ms, 1180ms total)
T39F8 2421:096 JLINK_GetHWStatus(...)  returns 0x00 (0000ms, 1180ms total)
T39F8 2421:096 JLINK_GetNumBPUnits(Type = 0xFFFFFF00)  returns 0x06 (0000ms, 1180ms total)
T39F8 2421:096 JLINK_GetNumBPUnits(Type = 0xF0)  returns 0x2000 (0000ms, 1180ms total)
T39F8 2421:096 JLINK_GetNumWPUnits()  returns 0x04 (0000ms, 1180ms total)
T39F8 2421:097 JLINK_GetSpeed()  returns 0x1388 (0000ms, 1181ms total)
T39F8 2421:097 JLINK_ReadMemU32(0xE000E004, 0x0001 Items, ...) -- CPU_ReadMem(4 bytes @ 0xE000E004) - Data: 02 00 00 00  returns 0x01 (0000ms, 1181ms total)
T39F8 2421:097 JLINK_ReadMemU32(0xE000E004, 0x0001 Items, ...) -- CPU_ReadMem(4 bytes @ 0xE000E004) - Data: 02 00 00 00  returns 0x01 (0000ms, 1181ms total)
T39F8 2421:097 JLINK_WriteMemEx(0xE0001000, 0x001C Bytes, ..., Flags = 0x02000004) - Data: 01 00 00 00 00 00 00 00 00 00 00 00 00 00 00 00 ... -- CPU_WriteMem(28 bytes @ 0xE0001000)  returns 0x1C (0001ms, 1182ms total)
T39F8 2421:098 JLINK_ReadReg(R15 (PC))  returns 0x0800019C (0000ms, 1182ms total)
T39F8 2421:098 JLINK_ReadReg(XPSR)  returns 0x01000000 (0000ms, 1182ms total)
T39F8 2421:120 JLINK_WriteMemEx(0x08000000, 0x0688 Bytes, ..., Flags = 0x02000000) - Data: 08 04 00 20 9D 01 00 08 D5 02 00 08 CD 02 00 08 ...  returns 0x688 (0002ms, 1184ms total)
T39F8 2421:177 JLINK_SetResetType(JLINKARM_CM3_RESET_TYPE_NORMAL)  returns JLINKARM_CM3_RESET_TYPE_NORMAL (0000ms, 1184ms total)
T39F8 2421:177 JLINK_Reset() -- CPU_ReadMem(4 bytes @ 0xE000ED90) -- CPU_ReadMem(4 bytes @ 0xE000ED94) -- -------------------------------------- -- Start of determining dirty areas in flash cache -- End of determining dirty areas -- Start of preparing flash programming -- Calculating RAM usage -- RAM usage = 2860 Bytes -- Preserving CPU registers -- Preparing memory -- Preparing target -- Downloading RAMCode -- Checking target RAM -- Preparing RAMCode -- End of preparing flash programming
 -- CPU is running at 110000 kHz. -- Start of comparing flash -- CRC check was estimated as fastest method -- Comparing range 0x8000000 - 0x8003FFF (1 Sector, 16 KB), using multi-block CRC calculation -- All CRCs match -- Comparing range 0x8000000 - 0x8003FFF (1 Sector, 16 KB), using alternative multi-block CRC calculation -- All CRCs match -- End of comparing flash -- Start of erasing sectors -- End of erasing sectors -- Start of flash programming -- End of flash programming -- Start of verifying flash
 -- End of verifying flash -- Start of restoring -- Restoring RAMCode -- Restore target -- Restore memory -- Restoring CPU registers -- End of restoring -- Bank 0 @ 0x08000000: Skipped. Contents already match -- Bank 0 @ 0x08000000: Skipped. Contents already match -- CPU_WriteMem(4 bytes @ 0xE0002000) -- CPU_ReadMem(4 bytes @ 0xE0002008) -- CPU_WriteMem(4 bytes @ 0xE000EDF4) -- CPU_ReadMem(4 bytes @ 0xE000EDF8) -- CPU_WriteMem(4 bytes @ 0xE0002008) -- CPU_WriteMem(4 bytes @ 0xE000EDF8)
 -- CPU_WriteMem(4 bytes @ 0xE000EDF4) -- CPU_WriteMem(4 bytes @ 0xE000EDF0) -- CPU_WriteMem(4 bytes @ 0xE000EDF0) -- CPU_ReadMem(4 bytes @ 0xE000EDF0) -- CPU_WriteMem(4 bytes @ 0xE000EDF0) -- CPU_WriteMem(4 bytes @ 0xE0002008) -- CPU_WriteMem(4 bytes @ 0xE000EDF8) -- CPU_WriteMem(4 bytes @ 0xE000EDF4) -- CPU_WriteMem(4 bytes @ 0xE000EDF0) -- CPU_WriteMem(4 bytes @ 0xE000EDFC)Reset: Halt core after reset via DEMCR.VC_CORERESET.Reset: Reset device via AIRCR.SYSRESETREQ.
 -- CPU_WriteMem(4 bytes @ 0xE000ED0C) -- CPU_ReadMem(4 bytes @ 0xE000EDF0) -- CPU_ReadMem(4 bytes @ 0xE000EDF0) -- CPU_WriteMem(4 bytes @ 0xE000EDF0) -- CPU_WriteMem(4 bytes @ 0xE000EDFC) -- CPU_ReadMem(4 bytes @ 0xE000EDF0) -- CPU_WriteMem(4 bytes @ 0xE000EDFC) -- CPU_WriteMem(4 bytes @ 0xE0001028) -- CPU_WriteMem(4 bytes @ 0xE0001038) -- CPU_WriteMem(4 bytes @ 0xE0001048) -- CPU_WriteMem(4 bytes @ 0xE0001058) -- CPU_WriteMem(4 bytes @ 0xE0002000) -- CPU_ReadMem(4 bytes @ 0xE000EDFC)
 -- CPU_ReadMem(4 bytes @ 0xE0001000) (0103ms, 1287ms total)
T39F8 2421:280 JLINK_ReadReg(R15 (PC))  returns 0x0800019C (0000ms, 1287ms total)
T39F8 2421:280 JLINK_ReadReg(XPSR)  returns 0x01000000 (0000ms, 1287ms total)
T39F8 2421:280 JLINK_ReadReg(R0)  returns 0x00000000 (0000ms, 1287ms total)
T39F8 2421:280 JLINK_ReadReg(R1)  returns 0x00000000 (0000ms, 1287ms total)
T39F8 2421:280 JLINK_ReadReg(R2)  returns 0x00000000 (0000ms, 1287ms total)
T39F8 2421:280 JLINK_ReadReg(R3)  returns 0x00000000 (0000ms, 1287ms total)
T39F8 2421:280 JLINK_ReadReg(R4)  returns 0x00000000 (0000ms, 1287ms total)
T39F8 2421:280 JLINK_ReadReg(R5)  returns 0x00000000 (0000ms, 1287ms total)
T39F8 2421:280 JLINK_ReadReg(R6)  returns 0x00000000 (0000ms, 1287ms total)
T39F8 2421:280 JLINK_ReadReg(R7)  returns 0x00000000 (0000ms, 1287ms total)
T39F8 2421:280 JLINK_ReadReg(R8)  returns 0x00000000 (0000ms, 1287ms total)
T39F8 2421:280 JLINK_ReadReg(R9)  returns 0x00000000 (0000ms, 1287ms total)
T39F8 2421:280 JLINK_ReadReg(R10)  returns 0x00000000 (0000ms, 1287ms total)
T39F8 2421:280 JLINK_ReadReg(R11)  returns 0x00000000 (0000ms, 1287ms total)
T39F8 2421:280 JLINK_ReadReg(R12)  returns 0x00000000 (0000ms, 1287ms total)
T39F8 2421:280 JLINK_ReadReg(R13 (SP))  returns 0x20000408 (0000ms, 1287ms total)
T39F8 2421:280 JLINK_ReadReg(R14)  returns 0xFFFFFFFF (0000ms, 1287ms total)
T39F8 2421:280 JLINK_ReadReg(R15 (PC))  returns 0x0800019C (0000ms, 1287ms total)
T39F8 2421:280 JLINK_ReadReg(XPSR)  returns 0x01000000 (0000ms, 1287ms total)
T39F8 2421:280 JLINK_ReadReg(MSP)  returns 0x20000408 (0000ms, 1287ms total)
T39F8 2421:280 JLINK_ReadReg(PSP)  returns 0x00000000 (0000ms, 1287ms total)
T39F8 2421:280 JLINK_ReadReg(CFBP)  returns 0x00000000 (0000ms, 1287ms total)
T39F8 2421:280 JLINK_ReadReg(FPSCR)  returns 0x00000000 (0003ms, 1290ms total)
T39F8 2421:283 JLINK_ReadReg(FPS0)  returns 0x00000000 (0000ms, 1290ms total)
T39F8 2421:283 JLINK_ReadReg(FPS1)  returns 0x00000000 (0000ms, 1290ms total)
T39F8 2421:283 JLINK_ReadReg(FPS2)  returns 0x00000000 (0000ms, 1290ms total)
T39F8 2421:283 JLINK_ReadReg(FPS3)  returns 0x00000000 (0000ms, 1290ms total)
T39F8 2421:283 JLINK_ReadReg(FPS4)  returns 0x00000000 (0000ms, 1290ms total)
T39F8 2421:283 JLINK_ReadReg(FPS5)  returns 0x00000000 (0000ms, 1290ms total)
T39F8 2421:283 JLINK_ReadReg(FPS6)  returns 0x00000000 (0000ms, 1290ms total)
T39F8 2421:283 JLINK_ReadReg(FPS7)  returns 0x00000000 (0000ms, 1290ms total)
T39F8 2421:283 JLINK_ReadReg(FPS8)  returns 0x00000000 (0000ms, 1290ms total)
T39F8 2421:283 JLINK_ReadReg(FPS9)  returns 0x00000000 (0000ms, 1290ms total)
T39F8 2421:283 JLINK_ReadReg(FPS10)  returns 0x00000000 (0000ms, 1290ms total)
T39F8 2421:283 JLINK_ReadReg(FPS11)  returns 0x00000000 (0000ms, 1290ms total)
T39F8 2421:283 JLINK_ReadReg(FPS12)  returns 0x00000000 (0000ms, 1290ms total)
T39F8 2421:283 JLINK_ReadReg(FPS13)  returns 0x00000000 (0000ms, 1290ms total)
T39F8 2421:283 JLINK_ReadReg(FPS14)  returns 0x00000000 (0000ms, 1290ms total)
T39F8 2421:283 JLINK_ReadReg(FPS15)  returns 0x00000000 (0000ms, 1290ms total)
T39F8 2421:283 JLINK_ReadReg(FPS16)  returns 0x00000000 (0000ms, 1290ms total)
T39F8 2421:283 JLINK_ReadReg(FPS17)  returns 0x00000000 (0000ms, 1290ms total)
T39F8 2421:283 JLINK_ReadReg(FPS18)  returns 0x00000000 (0000ms, 1290ms total)
T39F8 2421:283 JLINK_ReadReg(FPS19)  returns 0x00000000 (0000ms, 1290ms total)
T39F8 2421:283 JLINK_ReadReg(FPS20)  returns 0x00000000 (0000ms, 1290ms total)
T39F8 2421:283 JLINK_ReadReg(FPS21)  returns 0x00000000 (0000ms, 1290ms total)
T39F8 2421:283 JLINK_ReadReg(FPS22)  returns 0x00000000 (0001ms, 1291ms total)
T39F8 2421:284 JLINK_ReadReg(FPS23)  returns 0x00000000 (0000ms, 1291ms total)
T39F8 2421:284 JLINK_ReadReg(FPS24)  returns 0x00000000 (0000ms, 1291ms total)
T39F8 2421:284 JLINK_ReadReg(FPS25)  returns 0x00000000 (0000ms, 1291ms total)
T39F8 2421:284 JLINK_ReadReg(FPS26)  returns 0x00000000 (0000ms, 1291ms total)
T39F8 2421:284 JLINK_ReadReg(FPS27)  returns 0x00000000 (0000ms, 1291ms total)
T39F8 2421:284 JLINK_ReadReg(FPS28)  returns 0x00000000 (0000ms, 1291ms total)
T39F8 2421:284 JLINK_ReadReg(FPS29)  returns 0x00000000 (0000ms, 1291ms total)
T39F8 2421:284 JLINK_ReadReg(FPS30)  returns 0x00000000 (0000ms, 1291ms total)
T39F8 2421:284 JLINK_ReadReg(FPS31)  returns 0x00000000 (0000ms, 1291ms total)
T39F8 2421:284 JLINK_ReadMemU32(0xE0001004, 0x0001 Items, ...) - Data: 00 00 00 00  returns 0x01 (0000ms, 1291ms total)
T39F8 2421:475 JLINK_ReadMemEx(0x08000188, 0x003C Bytes, ..., Flags = 0x02000000) -- Read from flash cache (60 bytes @ 0x08000188) - Data: DF F8 0C D0 00 F0 18 F8 00 48 00 47 2D 06 00 08 ...  returns 0x3C (0000ms, 1291ms total)
T1CE4 2423:176 JLINK_ReadMemEx(0x0800019C, 0x0002 Bytes, ..., Flags = 0x02000000) -- Read from flash cache (2 bytes @ 0x0800019C) - Data: 06 48  returns 0x02 (0000ms, 1291ms total)
T1CE4 2423:176 JLINK_SetBPEx(Addr = 0x0800062C, Type = 0xFFFFFFF2)  returns 0x00000001 (0000ms, 1291ms total)
T1CE4 2423:176 JLINK_SetBPEx(Addr = 0x08000466, Type = 0xFFFFFFF2)  returns 0x00000002 (0000ms, 1291ms total)
T1CE4 2423:176 JLINK_Go() -- CPU_ReadMem(4 bytes @ 0xE0001000) -- CPU_WriteMem(4 bytes @ 0xE0002008) -- CPU_WriteMem(4 bytes @ 0xE000200C) -- CPU_WriteMem(4 bytes @ 0xE0002010) -- CPU_WriteMem(4 bytes @ 0xE0002014) -- CPU_WriteMem(4 bytes @ 0xE0002018) -- CPU_WriteMem(4 bytes @ 0xE000201C) -- CPU_WriteMem(4 bytes @ 0xE0001004) (0002ms, 1293ms total)
T1CE4 2423:279 JLINK_IsHalted()  returns TRUE (0002ms, 1295ms total)
T1CE4 2423:281 JLINK_Halt()  returns 0x00 (0000ms, 1293ms total)
T1CE4 2423:281 JLINK_IsHalted()  returns TRUE (0000ms, 1293ms total)
T1CE4 2423:281 JLINK_IsHalted()  returns TRUE (0000ms, 1293ms total)
T1CE4 2423:281 JLINK_IsHalted()  returns TRUE (0000ms, 1293ms total)
T1CE4 2423:281 JLINK_ReadReg(R15 (PC))  returns 0x0800062C (0000ms, 1293ms total)
T1CE4 2423:281 JLINK_ReadReg(XPSR)  returns 0x61000000 (0000ms, 1293ms total)
T1CE4 2423:281 JLINK_ClrBPEx(BPHandle = 0x00000001)  returns 0x00 (0000ms, 1293ms total)
T1CE4 2423:281 JLINK_ClrBPEx(BPHandle = 0x00000002)  returns 0x00 (0000ms, 1293ms total)
T1CE4 2423:281 JLINK_ReadMemU32(0xE000ED30, 0x0001 Items, ...) -- CPU_ReadMem(4 bytes @ 0xE000ED30) - Data: 02 00 00 00  returns 0x01 (0000ms, 1293ms total)
T1CE4 2423:281 JLINK_ReadMemU32(0xE0001028, 0x0001 Items, ...) -- CPU_ReadMem(4 bytes @ 0xE0001028) - Data: 00 00 00 00  returns 0x01 (0000ms, 1293ms total)
T1CE4 2423:281 JLINK_ReadMemU32(0xE0001038, 0x0001 Items, ...) -- CPU_ReadMem(4 bytes @ 0xE0001038) - Data: 00 02 00 00  returns 0x01 (0001ms, 1294ms total)
T1CE4 2423:282 JLINK_ReadMemU32(0xE0001048, 0x0001 Items, ...) -- CPU_ReadMem(4 bytes @ 0xE0001048) - Data: 00 00 00 00  returns 0x01 (0000ms, 1294ms total)
T1CE4 2423:282 JLINK_ReadMemU32(0xE0001058, 0x0001 Items, ...) -- CPU_ReadMem(4 bytes @ 0xE0001058) - Data: 00 00 00 00  returns 0x01 (0000ms, 1294ms total)
T1CE4 2423:283 JLINK_ReadReg(R0)  returns 0x0800062D (0000ms, 1294ms total)
T1CE4 2423:283 JLINK_ReadReg(R1)  returns 0x20000408 (0000ms, 1294ms total)
T1CE4 2423:283 JLINK_ReadReg(R2)  returns 0x00000000 (0000ms, 1294ms total)
T1CE4 2423:283 JLINK_ReadReg(R3)  returns 0x08000529 (0000ms, 1294ms total)
T1CE4 2423:283 JLINK_ReadReg(R4)  returns 0x08000680 (0000ms, 1294ms total)
T1CE4 2423:283 JLINK_ReadReg(R5)  returns 0x08000680 (0000ms, 1294ms total)
T1CE4 2423:283 JLINK_ReadReg(R6)  returns 0x00000000 (0000ms, 1294ms total)
T1CE4 2423:283 JLINK_ReadReg(R7)  returns 0x00000000 (0000ms, 1294ms total)
T1CE4 2423:283 JLINK_ReadReg(R8)  returns 0x00000000 (0000ms, 1294ms total)
T1CE4 2423:283 JLINK_ReadReg(R9)  returns 0x00000000 (0000ms, 1294ms total)
T1CE4 2423:283 JLINK_ReadReg(R10)  returns 0x00000000 (0000ms, 1294ms total)
T1CE4 2423:283 JLINK_ReadReg(R11)  returns 0x00000000 (0000ms, 1294ms total)
T1CE4 2423:283 JLINK_ReadReg(R12)  returns 0x00000000 (0000ms, 1294ms total)
T1CE4 2423:283 JLINK_ReadReg(R13 (SP))  returns 0x20000408 (0000ms, 1294ms total)
T1CE4 2423:283 JLINK_ReadReg(R14)  returns 0x080001DD (0000ms, 1294ms total)
T1CE4 2423:283 JLINK_ReadReg(R15 (PC))  returns 0x0800062C (0000ms, 1294ms total)
T1CE4 2423:283 JLINK_ReadReg(XPSR)  returns 0x61000000 (0000ms, 1294ms total)
T1CE4 2423:283 JLINK_ReadReg(MSP)  returns 0x20000408 (0000ms, 1294ms total)
T1CE4 2423:283 JLINK_ReadReg(PSP)  returns 0x00000000 (0000ms, 1294ms total)
T1CE4 2423:283 JLINK_ReadReg(CFBP)  returns 0x00000000 (0000ms, 1294ms total)
T1CE4 2423:283 JLINK_ReadReg(FPSCR)  returns 0x00000000 (0003ms, 1297ms total)
T1CE4 2423:286 JLINK_ReadReg(FPS0)  returns 0x00000000 (0000ms, 1297ms total)
T1CE4 2423:286 JLINK_ReadReg(FPS1)  returns 0x00000000 (0000ms, 1297ms total)
T1CE4 2423:286 JLINK_ReadReg(FPS2)  returns 0x00000000 (0000ms, 1297ms total)
T1CE4 2423:286 JLINK_ReadReg(FPS3)  returns 0x00000000 (0000ms, 1297ms total)
T1CE4 2423:286 JLINK_ReadReg(FPS4)  returns 0x00000000 (0000ms, 1297ms total)
T1CE4 2423:286 JLINK_ReadReg(FPS5)  returns 0x00000000 (0000ms, 1297ms total)
T1CE4 2423:286 JLINK_ReadReg(FPS6)  returns 0x00000000 (0000ms, 1297ms total)
T1CE4 2423:286 JLINK_ReadReg(FPS7)  returns 0x00000000 (0000ms, 1297ms total)
T1CE4 2423:286 JLINK_ReadReg(FPS8)  returns 0x00000000 (0000ms, 1297ms total)
T1CE4 2423:286 JLINK_ReadReg(FPS9)  returns 0x00000000 (0000ms, 1297ms total)
T1CE4 2423:286 JLINK_ReadReg(FPS10)  returns 0x00000000 (0000ms, 1297ms total)
T1CE4 2423:286 JLINK_ReadReg(FPS11)  returns 0x00000000 (0000ms, 1297ms total)
T1CE4 2423:286 JLINK_ReadReg(FPS12)  returns 0x00000000 (0000ms, 1297ms total)
T1CE4 2423:286 JLINK_ReadReg(FPS13)  returns 0x00000000 (0000ms, 1297ms total)
T1CE4 2423:286 JLINK_ReadReg(FPS14)  returns 0x00000000 (0000ms, 1297ms total)
T1CE4 2423:286 JLINK_ReadReg(FPS15)  returns 0x00000000 (0000ms, 1297ms total)
T1CE4 2423:286 JLINK_ReadReg(FPS16)  returns 0x00000000 (0000ms, 1297ms total)
T1CE4 2423:286 JLINK_ReadReg(FPS17)  returns 0x00000000 (0000ms, 1297ms total)
T1CE4 2423:286 JLINK_ReadReg(FPS18)  returns 0x00000000 (0000ms, 1297ms total)
T1CE4 2423:286 JLINK_ReadReg(FPS19)  returns 0x00000000 (0000ms, 1297ms total)
T1CE4 2423:286 JLINK_ReadReg(FPS20)  returns 0x00000000 (0000ms, 1297ms total)
T1CE4 2423:286 JLINK_ReadReg(FPS21)  returns 0x00000000 (0000ms, 1297ms total)
T1CE4 2423:286 JLINK_ReadReg(FPS22)  returns 0x00000000 (0000ms, 1297ms total)
T1CE4 2423:286 JLINK_ReadReg(FPS23)  returns 0x00000000 (0000ms, 1297ms total)
T1CE4 2423:286 JLINK_ReadReg(FPS24)  returns 0x00000000 (0000ms, 1297ms total)
T1CE4 2423:286 JLINK_ReadReg(FPS25)  returns 0x00000000 (0000ms, 1297ms total)
T1CE4 2423:286 JLINK_ReadReg(FPS26)  returns 0x00000000 (0000ms, 1297ms total)
T1CE4 2423:286 JLINK_ReadReg(FPS27)  returns 0x00000000 (0000ms, 1297ms total)
T1CE4 2423:286 JLINK_ReadReg(FPS28)  returns 0x00000000 (0000ms, 1297ms total)
T1CE4 2423:286 JLINK_ReadReg(FPS29)  returns 0x00000000 (0000ms, 1297ms total)
T1CE4 2423:286 JLINK_ReadReg(FPS30)  returns 0x00000000 (0000ms, 1297ms total)
T1CE4 2423:286 JLINK_ReadReg(FPS31)  returns 0x00000000 (0000ms, 1297ms total)
T39F8 2423:296 JLINK_ReadMemU32(0xE0001004, 0x0001 Items, ...) -- CPU_ReadMem(4 bytes @ 0xE0001004) - Data: 87 35 00 00  returns 0x01 (0000ms, 1297ms total)
T39F8 2423:300 JLINK_ReadMemEx(0x0800052C, 0x003C Bytes, ..., Flags = 0x02000000) -- Read from flash cache (60 bytes @ 0x0800052C) - Data: 01 C1 12 1F 00 2A FB D1 70 47 00 00 1C B5 01 21 ...  returns 0x3C (0000ms, 1297ms total)
T39F8 2423:300 JLINK_ReadMemEx(0x08000568, 0x003C Bytes, ..., Flags = 0x02000000) -- Read from flash cache (60 bytes @ 0x08000568) - Data: 4F F4 80 71 01 48 FF F7 A9 FE 1C BD 00 14 02 40 ...  returns 0x3C (0000ms, 1297ms total)
T39F8 2423:300 JLINK_ReadMemEx(0x080005A4, 0x003C Bytes, ..., Flags = 0x02000000) -- Read from flash cache (60 bytes @ 0x080005A4) - Data: FF 72 02 EA C1 01 02 4A 11 80 70 47 04 00 00 20 ...  returns 0x3C (0000ms, 1297ms total)
T39F8 2423:300 JLINK_ReadMemEx(0x080005E0, 0x003C Bytes, ..., Flags = 0x02000000) -- Read from flash cache (60 bytes @ 0x080005E0) - Data: C6 B2 00 2E F7 D1 15 B1 28 46 00 F0 01 F8 70 BD ...  returns 0x3C (0000ms, 1297ms total)
T39F8 2423:300 JLINK_ReadMemEx(0x0800061C, 0x003C Bytes, ..., Flags = 0x02000000) -- Read from flash cache (60 bytes @ 0x0800061C) - Data: 00 22 4F F0 E0 23 1A 61 9A 61 70 47 06 00 00 20 ...  returns 0x3C (0000ms, 1297ms total)
T1CE4 2491:996 JLINK_ReadMemEx(0x0800062C, 0x0002 Bytes, ..., Flags = 0x02000000) -- Read from flash cache (2 bytes @ 0x0800062C) - Data: A8 20  returns 0x02 (0000ms, 1297ms total)
T1CE4 2491:996 JLINK_Step() -- Read from flash cache (2 bytes @ 0x0800062C) -- CPU_ReadMem(4 bytes @ 0xE000ED18) -- CPU_WriteMem(4 bytes @ 0xE000ED18) -- CPU_ReadMem(4 bytes @ 0xE000ED18) -- CPU_WriteMem(4 bytes @ 0xE000ED18) -- Simulated  returns 0x00 (0001ms, 1298ms total)
T1CE4 2491:997 JLINK_ReadReg(R15 (PC))  returns 0x0800062E (0000ms, 1298ms total)
T1CE4 2491:997 JLINK_ReadReg(XPSR)  returns 0x21000000 (0000ms, 1298ms total)
T1CE4 2491:998 JLINK_Step() -- Read from flash cache (2 bytes @ 0x0800062E) -- Read from flash cache (2 bytes @ 0x08000630) -- Simulated  returns 0x00 (0000ms, 1298ms total)
T1CE4 2491:998 JLINK_ReadReg(R15 (PC))  returns 0x08000578 (0000ms, 1298ms total)
T1CE4 2491:998 JLINK_ReadReg(XPSR)  returns 0x21000000 (0000ms, 1298ms total)
T1CE4 2491:998 JLINK_ReadReg(R0)  returns 0x000000A8 (0000ms, 1298ms total)
T1CE4 2491:998 JLINK_ReadReg(R1)  returns 0x20000408 (0000ms, 1298ms total)
T1CE4 2491:998 JLINK_ReadReg(R2)  returns 0x00000000 (0000ms, 1298ms total)
T1CE4 2491:998 JLINK_ReadReg(R3)  returns 0x08000529 (0000ms, 1298ms total)
T1CE4 2491:998 JLINK_ReadReg(R4)  returns 0x08000680 (0000ms, 1298ms total)
T1CE4 2491:998 JLINK_ReadReg(R5)  returns 0x08000680 (0000ms, 1298ms total)
T1CE4 2491:998 JLINK_ReadReg(R6)  returns 0x00000000 (0000ms, 1298ms total)
T1CE4 2491:998 JLINK_ReadReg(R7)  returns 0x00000000 (0000ms, 1298ms total)
T1CE4 2491:998 JLINK_ReadReg(R8)  returns 0x00000000 (0000ms, 1298ms total)
T1CE4 2491:998 JLINK_ReadReg(R9)  returns 0x00000000 (0000ms, 1298ms total)
T1CE4 2491:998 JLINK_ReadReg(R10)  returns 0x00000000 (0000ms, 1298ms total)
T1CE4 2491:998 JLINK_ReadReg(R11)  returns 0x00000000 (0000ms, 1298ms total)
T1CE4 2491:998 JLINK_ReadReg(R12)  returns 0x00000000 (0000ms, 1298ms total)
T1CE4 2491:998 JLINK_ReadReg(R13 (SP))  returns 0x20000408 (0000ms, 1298ms total)
T1CE4 2491:998 JLINK_ReadReg(R14)  returns 0x08000633 (0000ms, 1298ms total)
T1CE4 2491:998 JLINK_ReadReg(R15 (PC))  returns 0x08000578 (0000ms, 1298ms total)
T1CE4 2491:998 JLINK_ReadReg(XPSR)  returns 0x21000000 (0001ms, 1299ms total)
T1CE4 2491:999 JLINK_ReadReg(MSP)  returns 0x20000408 (0000ms, 1299ms total)
T1CE4 2491:999 JLINK_ReadReg(PSP)  returns 0x00000000 (0000ms, 1299ms total)
T1CE4 2491:999 JLINK_ReadReg(CFBP)  returns 0x00000000 (0000ms, 1299ms total)
T1CE4 2491:999 JLINK_ReadReg(FPSCR)  returns 0x00000000 (0000ms, 1299ms total)
T1CE4 2491:999 JLINK_ReadReg(FPS0)  returns 0x00000000 (0000ms, 1299ms total)
T1CE4 2491:999 JLINK_ReadReg(FPS1)  returns 0x00000000 (0000ms, 1299ms total)
T1CE4 2491:999 JLINK_ReadReg(FPS2)  returns 0x00000000 (0000ms, 1299ms total)
T1CE4 2491:999 JLINK_ReadReg(FPS3)  returns 0x00000000 (0000ms, 1299ms total)
T1CE4 2491:999 JLINK_ReadReg(FPS4)  returns 0x00000000 (0000ms, 1299ms total)
T1CE4 2491:999 JLINK_ReadReg(FPS5)  returns 0x00000000 (0000ms, 1299ms total)
T1CE4 2491:999 JLINK_ReadReg(FPS6)  returns 0x00000000 (0000ms, 1299ms total)
T1CE4 2491:999 JLINK_ReadReg(FPS7)  returns 0x00000000 (0000ms, 1299ms total)
T1CE4 2491:999 JLINK_ReadReg(FPS8)  returns 0x00000000 (0000ms, 1299ms total)
T1CE4 2491:999 JLINK_ReadReg(FPS9)  returns 0x00000000 (0000ms, 1299ms total)
T1CE4 2491:999 JLINK_ReadReg(FPS10)  returns 0x00000000 (0000ms, 1299ms total)
T1CE4 2491:999 JLINK_ReadReg(FPS11)  returns 0x00000000 (0000ms, 1299ms total)
T1CE4 2491:999 JLINK_ReadReg(FPS12)  returns 0x00000000 (0000ms, 1299ms total)
T1CE4 2491:999 JLINK_ReadReg(FPS13)  returns 0x00000000 (0000ms, 1299ms total)
T1CE4 2491:999 JLINK_ReadReg(FPS14)  returns 0x00000000 (0000ms, 1299ms total)
T1CE4 2491:999 JLINK_ReadReg(FPS15)  returns 0x00000000 (0000ms, 1299ms total)
T1CE4 2491:999 JLINK_ReadReg(FPS16)  returns 0x00000000 (0000ms, 1299ms total)
T1CE4 2491:999 JLINK_ReadReg(FPS17)  returns 0x00000000 (0000ms, 1299ms total)
T1CE4 2491:999 JLINK_ReadReg(FPS18)  returns 0x00000000 (0000ms, 1299ms total)
T1CE4 2491:999 JLINK_ReadReg(FPS19)  returns 0x00000000 (0000ms, 1299ms total)
T1CE4 2491:999 JLINK_ReadReg(FPS20)  returns 0x00000000 (0000ms, 1299ms total)
T1CE4 2491:999 JLINK_ReadReg(FPS21)  returns 0x00000000 (0000ms, 1299ms total)
T1CE4 2491:999 JLINK_ReadReg(FPS22)  returns 0x00000000 (0000ms, 1299ms total)
T1CE4 2491:999 JLINK_ReadReg(FPS23)  returns 0x00000000 (0000ms, 1299ms total)
T1CE4 2491:999 JLINK_ReadReg(FPS24)  returns 0x00000000 (0000ms, 1299ms total)
T1CE4 2491:999 JLINK_ReadReg(FPS25)  returns 0x00000000 (0000ms, 1299ms total)
T1CE4 2491:999 JLINK_ReadReg(FPS26)  returns 0x00000000 (0000ms, 1299ms total)
T1CE4 2491:999 JLINK_ReadReg(FPS27)  returns 0x00000000 (0000ms, 1299ms total)
T1CE4 2491:999 JLINK_ReadReg(FPS28)  returns 0x00000000 (0000ms, 1299ms total)
T1CE4 2491:999 JLINK_ReadReg(FPS29)  returns 0x00000000 (0000ms, 1299ms total)
T1CE4 2491:999 JLINK_ReadReg(FPS30)  returns 0x00000000 (0000ms, 1299ms total)
T1CE4 2491:999 JLINK_ReadReg(FPS31)  returns 0x00000000 (0000ms, 1299ms total)
T39F8 2492:005 JLINK_ReadMemU32(0xE0001004, 0x0001 Items, ...) - Data: 89 35 00 00  returns 0x01 (0000ms, 1299ms total)
T39F8 2492:009 JLINK_ReadMemEx(0x08000478, 0x003C Bytes, ..., Flags = 0x02000000) -- Read from flash cache (60 bytes @ 0x08000478) - Data: 08 49 08 70 40 F2 26 61 05 48 00 F0 18 F8 30 B1 ...  returns 0x3C (0000ms, 1299ms total)
T39F8 2492:009 JLINK_ReadMemEx(0x080004B4, 0x003C Bytes, ..., Flags = 0x02000000) -- Read from flash cache (60 bytes @ 0x080004B4) - Data: 70 47 70 B5 02 46 00 24 00 23 00 25 00 20 40 F6 ...  returns 0x3C (0000ms, 1299ms total)
T39F8 2492:009 JLINK_ReadMemEx(0x080004F0, 0x003C Bytes, ..., Flags = 0x02000000) -- Read from flash cache (60 bytes @ 0x080004F0) - Data: 33 40 0C 12 01 26 06 FA 04 F4 16 88 34 40 13 B1 ...  returns 0x3C (0000ms, 1299ms total)
T39F8 2492:009 JLINK_ReadMemEx(0x0800052C, 0x003C Bytes, ..., Flags = 0x02000000) -- Read from flash cache (60 bytes @ 0x0800052C) - Data: 01 C1 12 1F 00 2A FB D1 70 47 00 00 1C B5 01 21 ...  returns 0x3C (0000ms, 1299ms total)
T39F8 2492:009 JLINK_ReadMemEx(0x08000568, 0x003C Bytes, ..., Flags = 0x02000000) -- Read from flash cache (60 bytes @ 0x08000568) - Data: 4F F4 80 71 01 48 FF F7 A9 FE 1C BD 00 14 02 40 ...  returns 0x3C (0000ms, 1299ms total)
T1CE4 2503:069 JLINK_ReadMemEx(0x08000578, 0x0002 Bytes, ..., Flags = 0x02000000) -- Read from flash cache (2 bytes @ 0x08000578) - Data: 4F F0  returns 0x02 (0000ms, 1299ms total)
T1CE4 2503:069 JLINK_SetBPEx(Addr = 0x08000466, Type = 0xFFFFFFF2)  returns 0x00000003 (0000ms, 1299ms total)
T1CE4 2503:069 JLINK_SetBPEx(Addr = 0x08000632, Type = 0xFFFFFFF2)  returns 0x00000004 (0000ms, 1299ms total)
T1CE4 2503:069 JLINK_Go() -- CPU_ReadMem(4 bytes @ 0xE0001000) -- CPU_WriteMem(4 bytes @ 0xE0002008) -- CPU_WriteMem(4 bytes @ 0xE000200C) -- CPU_WriteMem(4 bytes @ 0xE0001004) (0003ms, 1302ms total)
T1CE4 2503:172 JLINK_IsHalted()  returns TRUE (0002ms, 1304ms total)
T1CE4 2503:174 JLINK_Halt()  returns 0x00 (0000ms, 1302ms total)
T1CE4 2503:174 JLINK_IsHalted()  returns TRUE (0000ms, 1302ms total)
T1CE4 2503:174 JLINK_IsHalted()  returns TRUE (0000ms, 1302ms total)
T1CE4 2503:174 JLINK_IsHalted()  returns TRUE (0000ms, 1302ms total)
T1CE4 2503:174 JLINK_ReadReg(R15 (PC))  returns 0x08000632 (0000ms, 1302ms total)
T1CE4 2503:174 JLINK_ReadReg(XPSR)  returns 0x41000000 (0000ms, 1302ms total)
T1CE4 2503:174 JLINK_ClrBPEx(BPHandle = 0x00000003)  returns 0x00 (0000ms, 1302ms total)
T1CE4 2503:174 JLINK_ClrBPEx(BPHandle = 0x00000004)  returns 0x00 (0000ms, 1302ms total)
T1CE4 2503:174 JLINK_ReadMemU32(0xE000ED30, 0x0001 Items, ...) -- CPU_ReadMem(4 bytes @ 0xE000ED30) - Data: 02 00 00 00  returns 0x01 (0000ms, 1302ms total)
T1CE4 2503:174 JLINK_ReadMemU32(0xE0001028, 0x0001 Items, ...) -- CPU_ReadMem(4 bytes @ 0xE0001028) - Data: 00 00 00 00  returns 0x01 (0001ms, 1303ms total)
T1CE4 2503:175 JLINK_ReadMemU32(0xE0001038, 0x0001 Items, ...) -- CPU_ReadMem(4 bytes @ 0xE0001038) - Data: 00 02 00 00  returns 0x01 (0000ms, 1303ms total)
T1CE4 2503:175 JLINK_ReadMemU32(0xE0001048, 0x0001 Items, ...) -- CPU_ReadMem(4 bytes @ 0xE0001048) - Data: 00 00 00 00  returns 0x01 (0000ms, 1303ms total)
T1CE4 2503:175 JLINK_ReadMemU32(0xE0001058, 0x0001 Items, ...) -- CPU_ReadMem(4 bytes @ 0xE0001058) - Data: 00 00 00 00  returns 0x01 (0001ms, 1304ms total)
T1CE4 2503:176 JLINK_ReadReg(R0)  returns 0x000000A8 (0000ms, 1304ms total)
T1CE4 2503:176 JLINK_ReadReg(R1)  returns 0x00005208 (0000ms, 1304ms total)
T1CE4 2503:176 JLINK_ReadReg(R2)  returns 0x20000006 (0000ms, 1304ms total)
T1CE4 2503:176 JLINK_ReadReg(R3)  returns 0x20000004 (0000ms, 1304ms total)
T1CE4 2503:176 JLINK_ReadReg(R4)  returns 0x08000680 (0000ms, 1304ms total)
T1CE4 2503:176 JLINK_ReadReg(R5)  returns 0x08000680 (0000ms, 1304ms total)
T1CE4 2503:176 JLINK_ReadReg(R6)  returns 0x00000000 (0000ms, 1304ms total)
T1CE4 2503:176 JLINK_ReadReg(R7)  returns 0x00000000 (0000ms, 1304ms total)
T1CE4 2503:176 JLINK_ReadReg(R8)  returns 0x00000000 (0000ms, 1304ms total)
T1CE4 2503:176 JLINK_ReadReg(R9)  returns 0x00000000 (0000ms, 1304ms total)
T1CE4 2503:176 JLINK_ReadReg(R10)  returns 0x00000000 (0000ms, 1304ms total)
T1CE4 2503:176 JLINK_ReadReg(R11)  returns 0x00000000 (0000ms, 1304ms total)
T1CE4 2503:176 JLINK_ReadReg(R12)  returns 0x00000000 (0000ms, 1304ms total)
T1CE4 2503:176 JLINK_ReadReg(R13 (SP))  returns 0x20000408 (0000ms, 1304ms total)
T1CE4 2503:176 JLINK_ReadReg(R14)  returns 0x08000633 (0000ms, 1304ms total)
T1CE4 2503:176 JLINK_ReadReg(R15 (PC))  returns 0x08000632 (0000ms, 1304ms total)
T1CE4 2503:176 JLINK_ReadReg(XPSR)  returns 0x41000000 (0000ms, 1304ms total)
T1CE4 2503:176 JLINK_ReadReg(MSP)  returns 0x20000408 (0000ms, 1304ms total)
T1CE4 2503:176 JLINK_ReadReg(PSP)  returns 0x00000000 (0000ms, 1304ms total)
T1CE4 2503:176 JLINK_ReadReg(CFBP)  returns 0x00000000 (0000ms, 1304ms total)
T1CE4 2503:176 JLINK_ReadReg(FPSCR)  returns 0x00000000 (0003ms, 1307ms total)
T1CE4 2503:179 JLINK_ReadReg(FPS0)  returns 0x00000000 (0000ms, 1307ms total)
T1CE4 2503:179 JLINK_ReadReg(FPS1)  returns 0x00000000 (0000ms, 1307ms total)
T1CE4 2503:179 JLINK_ReadReg(FPS2)  returns 0x00000000 (0000ms, 1307ms total)
T1CE4 2503:179 JLINK_ReadReg(FPS3)  returns 0x00000000 (0000ms, 1307ms total)
T1CE4 2503:179 JLINK_ReadReg(FPS4)  returns 0x00000000 (0000ms, 1307ms total)
T1CE4 2503:179 JLINK_ReadReg(FPS5)  returns 0x00000000 (0000ms, 1307ms total)
T1CE4 2503:179 JLINK_ReadReg(FPS6)  returns 0x00000000 (0000ms, 1307ms total)
T1CE4 2503:179 JLINK_ReadReg(FPS7)  returns 0x00000000 (0000ms, 1307ms total)
T1CE4 2503:179 JLINK_ReadReg(FPS8)  returns 0x00000000 (0000ms, 1307ms total)
T1CE4 2503:179 JLINK_ReadReg(FPS9)  returns 0x00000000 (0000ms, 1307ms total)
T1CE4 2503:179 JLINK_ReadReg(FPS10)  returns 0x00000000 (0000ms, 1307ms total)
T1CE4 2503:179 JLINK_ReadReg(FPS11)  returns 0x00000000 (0000ms, 1307ms total)
T1CE4 2503:179 JLINK_ReadReg(FPS12)  returns 0x00000000 (0000ms, 1307ms total)
T1CE4 2503:179 JLINK_ReadReg(FPS13)  returns 0x00000000 (0000ms, 1307ms total)
T1CE4 2503:179 JLINK_ReadReg(FPS14)  returns 0x00000000 (0000ms, 1307ms total)
T1CE4 2503:179 JLINK_ReadReg(FPS15)  returns 0x00000000 (0000ms, 1307ms total)
T1CE4 2503:179 JLINK_ReadReg(FPS16)  returns 0x00000000 (0000ms, 1307ms total)
T1CE4 2503:179 JLINK_ReadReg(FPS17)  returns 0x00000000 (0000ms, 1307ms total)
T1CE4 2503:179 JLINK_ReadReg(FPS18)  returns 0x00000000 (0000ms, 1307ms total)
T1CE4 2503:179 JLINK_ReadReg(FPS19)  returns 0x00000000 (0000ms, 1307ms total)
T1CE4 2503:179 JLINK_ReadReg(FPS20)  returns 0x00000000 (0000ms, 1307ms total)
T1CE4 2503:179 JLINK_ReadReg(FPS21)  returns 0x00000000 (0000ms, 1307ms total)
T1CE4 2503:179 JLINK_ReadReg(FPS22)  returns 0x00000000 (0000ms, 1307ms total)
T1CE4 2503:179 JLINK_ReadReg(FPS23)  returns 0x00000000 (0000ms, 1307ms total)
T1CE4 2503:179 JLINK_ReadReg(FPS24)  returns 0x00000000 (0000ms, 1307ms total)
T1CE4 2503:179 JLINK_ReadReg(FPS25)  returns 0x00000000 (0000ms, 1307ms total)
T1CE4 2503:179 JLINK_ReadReg(FPS26)  returns 0x00000000 (0000ms, 1307ms total)
T1CE4 2503:179 JLINK_ReadReg(FPS27)  returns 0x00000000 (0000ms, 1307ms total)
T1CE4 2503:179 JLINK_ReadReg(FPS28)  returns 0x00000000 (0000ms, 1307ms total)
T1CE4 2503:179 JLINK_ReadReg(FPS29)  returns 0x00000000 (0000ms, 1307ms total)
T1CE4 2503:180 JLINK_ReadReg(FPS30)  returns 0x00000000 (0000ms, 1308ms total)
T1CE4 2503:180 JLINK_ReadReg(FPS31)  returns 0x00000000 (0000ms, 1308ms total)
T39F8 2503:187 JLINK_ReadMemU32(0xE0001004, 0x0001 Items, ...) -- CPU_ReadMem(4 bytes @ 0xE0001004) - Data: AD 35 00 00  returns 0x01 (0000ms, 1308ms total)
T39F8 2503:191 JLINK_ReadMemEx(0x0800062C, 0x003C Bytes, ..., Flags = 0x02000000) -- Read from flash cache (60 bytes @ 0x0800062C) - Data: A8 20 FF F7 A3 FF FF F7 81 FF 0F E0 4F F4 80 71 ...  returns 0x3C (0000ms, 1308ms total)
T39F8 2690:720 JLINK_ReadMemEx(0x40021400, 0x0014 Bytes, ..., Flags = 0x02000004) -- CPU_ReadMem(20 bytes @ 0x40021400) - Data: 00 00 00 00 00 00 00 00 00 00 00 00 00 00 00 00 ...  returns 0x14 (0001ms, 1309ms total)
T39F8 2690:721 JLINK_ReadMemEx(0x40021400, 0x0004 Bytes, ..., Flags = 0x02000004) -- CPU_ReadMem(4 bytes @ 0x40021400) - Data: 00 00 00 00  returns 0x04 (0000ms, 1309ms total)
T39F8 2690:721 JLINK_ReadMemEx(0x40021404, 0x0004 Bytes, ..., Flags = 0x02000004) -- CPU_ReadMem(4 bytes @ 0x40021404) - Data: 00 00 00 00  returns 0x04 (0000ms, 1309ms total)
T39F8 2690:721 JLINK_ReadMemEx(0x40021408, 0x0004 Bytes, ..., Flags = 0x02000004) -- CPU_ReadMem(4 bytes @ 0x40021408) - Data: 00 00 00 00  returns 0x04 (0001ms, 1310ms total)
T39F8 2690:722 JLINK_ReadMemEx(0x4002140C, 0x0004 Bytes, ..., Flags = 0x02000004) -- CPU_ReadMem(4 bytes @ 0x4002140C) - Data: 00 00 00 00  returns 0x04 (0000ms, 1310ms total)
T39F8 2690:722 JLINK_ReadMemEx(0x40021410, 0x0004 Bytes, ..., Flags = 0x02000004) -- CPU_ReadMem(4 bytes @ 0x40021410) - Data: 00 00 00 00  returns 0x04 (0000ms, 1310ms total)
T39F8 2690:722 JLINK_ReadMemEx(0x40021414, 0x0004 Bytes, ..., Flags = 0x02000004) -- CPU_ReadMem(4 bytes @ 0x40021414) - Data: 00 00 00 00  returns 0x04 (0001ms, 1311ms total)
T39F8 2690:723 JLINK_ReadMemEx(0x40021414, 0x0004 Bytes, ..., Flags = 0x02000004) -- CPU_ReadMem(4 bytes @ 0x40021414) - Data: 00 00 00 00  returns 0x04 (0000ms, 1311ms total)
T39F8 2690:723 JLINK_ReadMemEx(0x4002141C, 0x0008 Bytes, ..., Flags = 0x02000004) -- CPU_ReadMem(8 bytes @ 0x4002141C) - Data: 00 00 00 00 00 00 00 00  returns 0x08 (0001ms, 1312ms total)
T39F8 2690:724 JLINK_ReadMemEx(0x4002141C, 0x0004 Bytes, ..., Flags = 0x02000004) -- CPU_ReadMem(4 bytes @ 0x4002141C) - Data: 00 00 00 00  returns 0x04 (0000ms, 1312ms total)
T39F8 2690:724 JLINK_ReadMemEx(0x40021420, 0x0004 Bytes, ..., Flags = 0x02000004) -- CPU_ReadMem(4 bytes @ 0x40021420) - Data: 00 00 00 00  returns 0x04 (0000ms, 1312ms total)
T39F8 2690:724 JLINK_ReadMemEx(0x40021424, 0x0004 Bytes, ..., Flags = 0x02000004) -- CPU_ReadMem(4 bytes @ 0x40021424) - Data: 00 00 00 00  returns 0x04 (0001ms, 1313ms total)
T39F8 2690:725 JLINK_ReadMemEx(0x40021424, 0x0004 Bytes, ..., Flags = 0x02000004) -- CPU_ReadMem(4 bytes @ 0x40021424) - Data: 00 00 00 00  returns 0x04 (0000ms, 1313ms total)
T1CE4 2696:539 JLINK_ReadMemEx(0x08000632, 0x0002 Bytes, ..., Flags = 0x02000000) -- Read from flash cache (2 bytes @ 0x08000632) - Data: FF F7  returns 0x02 (0000ms, 1313ms total)
T1CE4 2696:539 JLINK_Step() -- Read from flash cache (2 bytes @ 0x08000632) -- Read from flash cache (2 bytes @ 0x08000634) -- Simulated  returns 0x00 (0000ms, 1313ms total)
T1CE4 2696:539 JLINK_ReadReg(R15 (PC))  returns 0x08000538 (0000ms, 1313ms total)
T1CE4 2696:539 JLINK_ReadReg(XPSR)  returns 0x41000000 (0000ms, 1313ms total)
T1CE4 2696:539 JLINK_SetBPEx(Addr = 0x08000466, Type = 0xFFFFFFF2)  returns 0x00000005 (0000ms, 1313ms total)
T1CE4 2696:539 JLINK_SetBPEx(Addr = 0x08000632, Type = 0xFFFFFFF2)  returns 0x00000006 (0000ms, 1313ms total)
T1CE4 2696:539 JLINK_SetBPEx(Addr = 0x08000642, Type = 0xFFFFFFF2)  returns 0x00000007 (0000ms, 1313ms total)
T1CE4 2696:539 JLINK_Go() -- CPU_ReadMem(4 bytes @ 0xE0001000) -- CPU_WriteMem(4 bytes @ 0xE0002010) -- CPU_WriteMem(4 bytes @ 0xE0001004) (0002ms, 1315ms total)
T1CE4 2696:642 JLINK_IsHalted()  returns TRUE (0002ms, 1317ms total)
T1CE4 2696:644 JLINK_Halt()  returns 0x00 (0000ms, 1315ms total)
T1CE4 2696:644 JLINK_IsHalted()  returns TRUE (0000ms, 1315ms total)
T1CE4 2696:644 JLINK_IsHalted()  returns TRUE (0000ms, 1315ms total)
T1CE4 2696:644 JLINK_IsHalted()  returns TRUE (0000ms, 1315ms total)
T1CE4 2696:644 JLINK_ReadReg(R15 (PC))  returns 0x08000642 (0000ms, 1315ms total)
T1CE4 2696:644 JLINK_ReadReg(XPSR)  returns 0x61000000 (0000ms, 1315ms total)
T1CE4 2696:644 JLINK_ClrBPEx(BPHandle = 0x00000005)  returns 0x00 (0000ms, 1315ms total)
T1CE4 2696:644 JLINK_ClrBPEx(BPHandle = 0x00000006)  returns 0x00 (0000ms, 1315ms total)
T1CE4 2696:644 JLINK_ClrBPEx(BPHandle = 0x00000007)  returns 0x00 (0000ms, 1315ms total)
T1CE4 2696:644 JLINK_ReadMemU32(0xE000ED30, 0x0001 Items, ...) -- CPU_ReadMem(4 bytes @ 0xE000ED30) - Data: 02 00 00 00  returns 0x01 (0000ms, 1315ms total)
T1CE4 2696:644 JLINK_ReadMemU32(0xE0001028, 0x0001 Items, ...) -- CPU_ReadMem(4 bytes @ 0xE0001028) - Data: 00 00 00 00  returns 0x01 (0001ms, 1316ms total)
T1CE4 2696:645 JLINK_ReadMemU32(0xE0001038, 0x0001 Items, ...) -- CPU_ReadMem(4 bytes @ 0xE0001038) - Data: 00 02 00 00  returns 0x01 (0000ms, 1316ms total)
T1CE4 2696:645 JLINK_ReadMemU32(0xE0001048, 0x0001 Items, ...) -- CPU_ReadMem(4 bytes @ 0xE0001048) - Data: 00 00 00 00  returns 0x01 (0000ms, 1316ms total)
T1CE4 2696:645 JLINK_ReadMemU32(0xE0001058, 0x0001 Items, ...) -- CPU_ReadMem(4 bytes @ 0xE0001058) - Data: 00 00 00 00  returns 0x01 (0001ms, 1317ms total)
T1CE4 2696:646 JLINK_ReadReg(R0)  returns 0x40021400 (0000ms, 1317ms total)
T1CE4 2696:646 JLINK_ReadReg(R1)  returns 0x00000100 (0000ms, 1317ms total)
T1CE4 2696:646 JLINK_ReadReg(R2)  returns 0x00000100 (0000ms, 1317ms total)
T1CE4 2696:646 JLINK_ReadReg(R3)  returns 0x02000301 (0000ms, 1317ms total)
T1CE4 2696:646 JLINK_ReadReg(R4)  returns 0x08000680 (0000ms, 1317ms total)
T1CE4 2696:646 JLINK_ReadReg(R5)  returns 0x08000680 (0000ms, 1317ms total)
T1CE4 2696:646 JLINK_ReadReg(R6)  returns 0x00000000 (0000ms, 1317ms total)
T1CE4 2696:646 JLINK_ReadReg(R7)  returns 0x00000000 (0000ms, 1317ms total)
T1CE4 2696:646 JLINK_ReadReg(R8)  returns 0x00000000 (0000ms, 1317ms total)
T1CE4 2696:646 JLINK_ReadReg(R9)  returns 0x00000000 (0000ms, 1317ms total)
T1CE4 2696:646 JLINK_ReadReg(R10)  returns 0x00000000 (0000ms, 1317ms total)
T1CE4 2696:646 JLINK_ReadReg(R11)  returns 0x00000000 (0000ms, 1317ms total)
T1CE4 2696:646 JLINK_ReadReg(R12)  returns 0x00000000 (0000ms, 1317ms total)
T1CE4 2696:646 JLINK_ReadReg(R13 (SP))  returns 0x20000408 (0000ms, 1317ms total)
T1CE4 2696:646 JLINK_ReadReg(R14)  returns 0x08000643 (0000ms, 1317ms total)
T1CE4 2696:646 JLINK_ReadReg(R15 (PC))  returns 0x08000642 (0000ms, 1317ms total)
T1CE4 2696:646 JLINK_ReadReg(XPSR)  returns 0x61000000 (0000ms, 1317ms total)
T1CE4 2696:646 JLINK_ReadReg(MSP)  returns 0x20000408 (0000ms, 1317ms total)
T1CE4 2696:646 JLINK_ReadReg(PSP)  returns 0x00000000 (0000ms, 1317ms total)
T1CE4 2696:646 JLINK_ReadReg(CFBP)  returns 0x00000000 (0000ms, 1317ms total)
T1CE4 2696:646 JLINK_ReadReg(FPSCR)  returns 0x00000000 (0003ms, 1320ms total)
T1CE4 2696:649 JLINK_ReadReg(FPS0)  returns 0x00000000 (0000ms, 1320ms total)
T1CE4 2696:649 JLINK_ReadReg(FPS1)  returns 0x00000000 (0000ms, 1320ms total)
T1CE4 2696:649 JLINK_ReadReg(FPS2)  returns 0x00000000 (0000ms, 1320ms total)
T1CE4 2696:649 JLINK_ReadReg(FPS3)  returns 0x00000000 (0000ms, 1320ms total)
T1CE4 2696:649 JLINK_ReadReg(FPS4)  returns 0x00000000 (0000ms, 1320ms total)
T1CE4 2696:649 JLINK_ReadReg(FPS5)  returns 0x00000000 (0000ms, 1320ms total)
T1CE4 2696:649 JLINK_ReadReg(FPS6)  returns 0x00000000 (0000ms, 1320ms total)
T1CE4 2696:649 JLINK_ReadReg(FPS7)  returns 0x00000000 (0000ms, 1320ms total)
T1CE4 2696:649 JLINK_ReadReg(FPS8)  returns 0x00000000 (0000ms, 1320ms total)
T1CE4 2696:649 JLINK_ReadReg(FPS9)  returns 0x00000000 (0000ms, 1320ms total)
T1CE4 2696:649 JLINK_ReadReg(FPS10)  returns 0x00000000 (0000ms, 1320ms total)
T1CE4 2696:649 JLINK_ReadReg(FPS11)  returns 0x00000000 (0000ms, 1320ms total)
T1CE4 2696:649 JLINK_ReadReg(FPS12)  returns 0x00000000 (0000ms, 1320ms total)
T1CE4 2696:649 JLINK_ReadReg(FPS13)  returns 0x00000000 (0000ms, 1320ms total)
T1CE4 2696:649 JLINK_ReadReg(FPS14)  returns 0x00000000 (0000ms, 1320ms total)
T1CE4 2696:649 JLINK_ReadReg(FPS15)  returns 0x00000000 (0000ms, 1320ms total)
T1CE4 2696:649 JLINK_ReadReg(FPS16)  returns 0x00000000 (0000ms, 1320ms total)
T1CE4 2696:649 JLINK_ReadReg(FPS17)  returns 0x00000000 (0000ms, 1320ms total)
T1CE4 2696:649 JLINK_ReadReg(FPS18)  returns 0x00000000 (0000ms, 1320ms total)
T1CE4 2696:649 JLINK_ReadReg(FPS19)  returns 0x00000000 (0000ms, 1320ms total)
T1CE4 2696:649 JLINK_ReadReg(FPS20)  returns 0x00000000 (0000ms, 1320ms total)
T1CE4 2696:649 JLINK_ReadReg(FPS21)  returns 0x00000000 (0000ms, 1320ms total)
T1CE4 2696:649 JLINK_ReadReg(FPS22)  returns 0x00000000 (0000ms, 1320ms total)
T1CE4 2696:649 JLINK_ReadReg(FPS23)  returns 0x00000000 (0000ms, 1320ms total)
T1CE4 2696:649 JLINK_ReadReg(FPS24)  returns 0x00000000 (0000ms, 1320ms total)
T1CE4 2696:649 JLINK_ReadReg(FPS25)  returns 0x00000000 (0000ms, 1320ms total)
T1CE4 2696:649 JLINK_ReadReg(FPS26)  returns 0x00000000 (0000ms, 1320ms total)
T1CE4 2696:649 JLINK_ReadReg(FPS27)  returns 0x00000000 (0000ms, 1320ms total)
T1CE4 2696:649 JLINK_ReadReg(FPS28)  returns 0x00000000 (0000ms, 1320ms total)
T1CE4 2696:649 JLINK_ReadReg(FPS29)  returns 0x00000000 (0000ms, 1320ms total)
T1CE4 2696:649 JLINK_ReadReg(FPS30)  returns 0x00000000 (0000ms, 1320ms total)
T1CE4 2696:649 JLINK_ReadReg(FPS31)  returns 0x00000000 (0000ms, 1320ms total)
T39F8 2696:649 JLINK_ReadMemU32(0xE0001004, 0x0001 Items, ...) -- CPU_ReadMem(4 bytes @ 0xE0001004) - Data: 50 37 00 00  returns 0x01 (0001ms, 1321ms total)
T39F8 2696:650 JLINK_ReadMemEx(0x40021400, 0x0014 Bytes, ..., Flags = 0x02000004) -- CPU_ReadMem(20 bytes @ 0x40021400) - Data: 00 00 01 00 00 00 00 00 00 00 03 00 00 00 02 00 ...  returns 0x14 (0000ms, 1321ms total)
T39F8 2696:650 JLINK_ReadMemEx(0x40021400, 0x0004 Bytes, ..., Flags = 0x02000004) -- CPU_ReadMem(4 bytes @ 0x40021400) - Data: 00 00 01 00  returns 0x04 (0001ms, 1322ms total)
T39F8 2696:651 JLINK_ReadMemEx(0x40021404, 0x0004 Bytes, ..., Flags = 0x02000004) -- CPU_ReadMem(4 bytes @ 0x40021404) - Data: 00 00 00 00  returns 0x04 (0000ms, 1322ms total)
T39F8 2696:651 JLINK_ReadMemEx(0x40021408, 0x0004 Bytes, ..., Flags = 0x02000004) -- CPU_ReadMem(4 bytes @ 0x40021408) - Data: 00 00 03 00  returns 0x04 (0000ms, 1322ms total)
T39F8 2696:651 JLINK_ReadMemEx(0x4002140C, 0x0004 Bytes, ..., Flags = 0x02000004) -- CPU_ReadMem(4 bytes @ 0x4002140C) - Data: 00 00 02 00  returns 0x04 (0001ms, 1323ms total)
T39F8 2696:652 JLINK_ReadMemEx(0x40021410, 0x0004 Bytes, ..., Flags = 0x02000004) -- CPU_ReadMem(4 bytes @ 0x40021410) - Data: 02 B8 00 00  returns 0x04 (0000ms, 1323ms total)
T39F8 2696:652 JLINK_ReadMemEx(0x40021414, 0x0004 Bytes, ..., Flags = 0x02000004) -- CPU_ReadMem(4 bytes @ 0x40021414) - Data: 00 00 00 00  returns 0x04 (0001ms, 1324ms total)
T39F8 2696:653 JLINK_ReadMemEx(0x40021414, 0x0004 Bytes, ..., Flags = 0x02000004) -- CPU_ReadMem(4 bytes @ 0x40021414) - Data: 00 00 00 00  returns 0x04 (0000ms, 1324ms total)
T39F8 2696:653 JLINK_ReadMemEx(0x4002141C, 0x0008 Bytes, ..., Flags = 0x02000004) -- CPU_ReadMem(8 bytes @ 0x4002141C) - Data: 00 00 00 00 00 00 00 00  returns 0x08 (0000ms, 1324ms total)
T39F8 2696:653 JLINK_ReadMemEx(0x4002141C, 0x0004 Bytes, ..., Flags = 0x02000004) -- CPU_ReadMem(4 bytes @ 0x4002141C) - Data: 00 00 00 00  returns 0x04 (0001ms, 1325ms total)
T39F8 2696:654 JLINK_ReadMemEx(0x40021420, 0x0004 Bytes, ..., Flags = 0x02000004) -- CPU_ReadMem(4 bytes @ 0x40021420) - Data: 00 00 00 00  returns 0x04 (0000ms, 1325ms total)
T39F8 2696:654 JLINK_ReadMemEx(0x40021424, 0x0004 Bytes, ..., Flags = 0x02000004) -- CPU_ReadMem(4 bytes @ 0x40021424) - Data: 00 00 00 00  returns 0x04 (0000ms, 1325ms total)
T39F8 2696:654 JLINK_ReadMemEx(0x40021424, 0x0004 Bytes, ..., Flags = 0x02000004) -- CPU_ReadMem(4 bytes @ 0x40021424) - Data: 00 00 00 00  returns 0x04 (0001ms, 1326ms total)
T39F8 2696:671 JLINK_ReadMemEx(0x08000638, 0x003C Bytes, ..., Flags = 0x02000000) -- Read from flash cache (60 bytes @ 0x08000638) - Data: 4F F4 80 71 07 48 FF F7 41 FE 32 20 FF F7 B8 FF ...  returns 0x3C (0000ms, 1326ms total)
